(1766475191.924035) vcan0 123#20007F00
(1766475192.125400) vcan0 123#21007F00
(1766475192.326181) vcan0 123#22007F00
(1766475192.530725) vcan0 123#22008000
(1766475192.734320) vcan0 123#23007F00
(1766475192.934860) vcan0 123#24007F00
(1766475193.140045) vcan0 123#25007F00
(1766475193.341019) vcan0 123#26007F00
(1766475193.541693) vcan0 123#27007F00
(1766475193.742333) vcan0 123#28007F00
(1766475193.945846) vcan0 123#28007F00
(1766475194.146398) vcan0 123#28007F00
(1766475194.346930) vcan0 123#29007F00
(1766475194.552432) vcan0 123#2A007F00
(1766475194.753844) vcan0 123#2C007F00
(1766475194.954836) vcan0 123#2C007F00
(1766475195.155210) vcan0 123#2D007F00
(1766475195.355597) vcan0 123#2E007F00
(1766475195.556224) vcan0 123#2E007F00
(1766475195.756716) vcan0 123#2F007F00
(1766475195.957009) vcan0 123#31007F00
(1766475196.161056) vcan0 123#31007F00
(1766475196.365294) vcan0 123#32007F00
(1766475196.568692) vcan0 123#33007F00
(1766475196.773380) vcan0 123#34007F00
(1766475196.976550) vcan0 123#35007F00
(1766475197.177722) vcan0 123#37007F00
(1766475197.378944) vcan0 123#37007F00
(1766475197.581724) vcan0 123#38007F00
(1766475197.787981) vcan0 123#3A007F00
(1766475197.989029) vcan0 123#3A007F00
(1766475198.193647) vcan0 123#3B007F00
(1766475198.395117) vcan0 123#3C007F00
(1766475198.596082) vcan0 123#3E007F00
(1766475198.798281) vcan0 123#3F007F00
(1766475199.001579) vcan0 123#40007F00
(1766475199.207275) vcan0 123#40007F00
(1766475199.408002) vcan0 123#41007F00
(1766475199.609389) vcan0 123#41007F00
(1766475199.811294) vcan0 123#42007F00
(1766475200.013872) vcan0 123#43007F00
(1766475200.220270) vcan0 123#45007F00
(1766475200.421875) vcan0 123#45007F00
(1766475200.623792) vcan0 123#47007F00
(1766475200.824717) vcan0 123#49007F00
(1766475201.025941) vcan0 123#4A007F00
(1766475201.227209) vcan0 123#4B007F00
(1766475201.428861) vcan0 123#4C007F00
(1766475201.630187) vcan0 123#4C007F00
(1766475201.830481) vcan0 123#4D007F00
(1766475202.031814) vcan0 123#4E008000
(1766475202.232776) vcan0 123#4F008000
(1766475202.435876) vcan0 123#50008000
(1766475202.638239) vcan0 123#51008000
(1766475202.848664) vcan0 123#52008000
(1766475203.049901) vcan0 123#53008000
(1766475203.253636) vcan0 123#54008000
(1766475203.454692) vcan0 123#55008000
(1766475203.655093) vcan0 123#56008000
(1766475203.856944) vcan0 123#57008000
(1766475204.058100) vcan0 123#57008000
(1766475204.258558) vcan0 123#59008000
(1766475204.459040) vcan0 123#5A008000
(1766475204.660080) vcan0 123#5B008000
(1766475204.861033) vcan0 123#5C008000
(1766475205.062422) vcan0 123#5C008000
(1766475205.263574) vcan0 123#5F008000
(1766475205.464020) vcan0 123#5F008000
(1766475205.665094) vcan0 123#60008000
(1766475205.865478) vcan0 123#60008000
(1766475206.066342) vcan0 123#61008000
(1766475206.266793) vcan0 123#62008000
(1766475206.467159) vcan0 123#63008000
(1766475206.667378) vcan0 123#64008000
(1766475206.868226) vcan0 123#64008000
(1766475207.069232) vcan0 123#66008000
(1766475207.269618) vcan0 123#67008000
(1766475207.470925) vcan0 123#69008000
(1766475207.674307) vcan0 123#69008000
(1766475207.874686) vcan0 123#6A008000
(1766475208.075467) vcan0 123#6C008000
(1766475208.276166) vcan0 123#6C008000
(1766475208.477287) vcan0 123#6D008000
(1766475208.677492) vcan0 123#6F008000
(1766475208.878470) vcan0 123#6F008000
(1766475209.079153) vcan0 123#71008000
(1766475209.279475) vcan0 123#72008000
(1766475209.480674) vcan0 123#72008000
(1766475209.680934) vcan0 123#73008000
(1766475209.881475) vcan0 123#74008000
(1766475210.082529) vcan0 123#76008000
(1766475210.282931) vcan0 123#76008000
(1766475210.484026) vcan0 123#77008000
(1766475210.684823) vcan0 123#77008000
(1766475210.886205) vcan0 123#78008000
(1766475211.087656) vcan0 123#79008000
(1766475211.288785) vcan0 123#7A008000
(1766475211.489193) vcan0 123#7C008000
(1766475211.690365) vcan0 123#7D008000
(1766475211.891711) vcan0 123#7D008000
(1766475212.092701) vcan0 123#7F008000
(1766475212.293375) vcan0 123#7F008000
(1766475212.498640) vcan0 123#80008000
(1766475212.699604) vcan0 123#81008000
(1766475212.901901) vcan0 123#82008000
(1766475213.102617) vcan0 123#83008000
(1766475213.303760) vcan0 123#85008000
(1766475213.504084) vcan0 123#86008000
(1766475213.704665) vcan0 123#87008000
(1766475213.905585) vcan0 123#89008000
(1766475214.105897) vcan0 123#8A007F00
(1766475214.306735) vcan0 123#8B007F00
(1766475214.507079) vcan0 123#8C007F00
(1766475214.709039) vcan0 123#8D007F00
(1766475214.909837) vcan0 123#8E007F00
(1766475215.110733) vcan0 123#90007F00
(1766475215.311058) vcan0 123#90007F00
(1766475215.514424) vcan0 123#91007F00
(1766475215.714921) vcan0 123#92007F00
(1766475215.915534) vcan0 123#92007F00
(1766475216.118877) vcan0 123#94007F00
(1766475216.320920) vcan0 123#94007F00
(1766475216.521465) vcan0 123#96007F00
(1766475216.722864) vcan0 123#97007F00
(1766475216.923192) vcan0 123#98007F00
(1766475217.123860) vcan0 123#99008000
(1766475217.325097) vcan0 123#99008000
(1766475217.526475) vcan0 123#9B008000
(1766475217.727633) vcan0 123#9C008000
(1766475217.928634) vcan0 123#9D008000
(1766475218.130036) vcan0 123#9E008000
(1766475218.330568) vcan0 123#9F008000
(1766475218.531126) vcan0 123#A0008000
(1766475218.731410) vcan0 123#A1008000
(1766475218.931991) vcan0 123#A2008000
(1766475219.132777) vcan0 123#A3008000
(1766475219.333225) vcan0 123#A4008000
(1766475219.533732) vcan0 123#A5008000
(1766475219.735120) vcan0 123#A6007F00
(1766475219.935427) vcan0 123#A8007F00
(1766475220.135924) vcan0 123#A9008000
(1766475220.336249) vcan0 123#AA008000
(1766475220.536629) vcan0 123#AB008000
(1766475220.737689) vcan0 123#AC008000
(1766475220.938142) vcan0 123#AD008000
(1766475221.145563) vcan0 123#AE008000
(1766475221.346432) vcan0 123#B0008000
(1766475221.547585) vcan0 123#B0008000
(1766475221.748331) vcan0 123#B1008000
(1766475221.949525) vcan0 123#B2008000
(1766475222.150051) vcan0 123#B3008000
(1766475222.350749) vcan0 123#B5008000
(1766475222.551326) vcan0 123#B5008000
(1766475222.751960) vcan0 123#B6008000
(1766475222.953212) vcan0 123#B6008000
(1766475223.154716) vcan0 123#B8008000
(1766475223.355061) vcan0 123#B9008000
(1766475223.555283) vcan0 123#BA008000
(1766475223.755832) vcan0 123#BB008000
(1766475223.959944) vcan0 123#BC008000
(1766475224.160748) vcan0 123#BD008000
(1766475224.361220) vcan0 123#BE008000
(1766475224.561593) vcan0 123#BF008000
(1766475224.768984) vcan0 123#C1008000
(1766475224.969321) vcan0 123#C2008000
(1766475225.169640) vcan0 123#C2008000
(1766475225.370389) vcan0 123#C3008000
(1766475225.570995) vcan0 123#C4008000
(1766475225.771870) vcan0 123#C4008000
(1766475225.973764) vcan0 123#C6008000
(1766475226.174555) vcan0 123#C7008000
(1766475226.375989) vcan0 123#C8008000
(1766475226.580160) vcan0 123#C9008000
(1766475226.782522) vcan0 123#CA007F00
(1766475226.986836) vcan0 123#CB007F00
(1766475227.195812) vcan0 123#CD007F00
(1766475227.400526) vcan0 123#CE007F00
(1766475227.602116) vcan0 123#CF008000
(1766475227.803402) vcan0 123#D0008000
(1766475228.004544) vcan0 123#D0008000
(1766475228.209686) vcan0 123#D2008000
(1766475228.410563) vcan0 123#D2008000
(1766475228.612357) vcan0 123#D3007F00
(1766475228.813041) vcan0 123#D4007F00
(1766475229.013805) vcan0 123#D4008000
(1766475229.216759) vcan0 123#D6008000
(1766475229.419293) vcan0 123#D6008000
(1766475229.621135) vcan0 123#D8008000
(1766475229.840003) vcan0 123#D9008000
(1766475230.042886) vcan0 123#DA008000
(1766475230.245920) vcan0 123#DA008000
(1766475230.451592) vcan0 123#DB008000
(1766475230.652709) vcan0 123#DC008000
(1766475230.855442) vcan0 123#DD008000
(1766475231.056805) vcan0 123#DE008000
(1766475231.257813) vcan0 123#DE008000
(1766475231.458271) vcan0 123#DF008000
(1766475231.659080) vcan0 123#E0008000
(1766475231.862734) vcan0 123#E1008000
(1766475232.063556) vcan0 123#E3008000
(1766475232.267445) vcan0 123#E3008000
(1766475232.468927) vcan0 123#E5008000
(1766475232.671955) vcan0 123#E6008000
(1766475232.876542) vcan0 123#E7008000
(1766475233.077771) vcan0 123#E8008000
